T1B2C 000:029.302   SEGGER J-Link V7.94c Log File
T1B2C 000:029.399   DLL Compiled: Jan  3 2024 15:15:42
T1B2C 000:029.403   Logging started @ 2024-11-28 14:50
T1B2C 000:029.407   Process: C:\software\Keil_v5\UV4\UV4.exe
T1B2C 000:029.413 - 29.411ms
T1B2C 000:029.420 JLINK_SetWarnOutHandler(...)
T1B2C 000:029.424 - 0.005ms
T1B2C 000:029.428 JLINK_OpenEx(...)
T1B2C 000:031.250   Firmware: J-Link ARM-OB STM32 compiled Aug 22 2012 19:52:04
T1B2C 000:032.109   Firmware: J-Link ARM-OB STM32 compiled Aug 22 2012 19:52:04
T1B2C 000:033.699   Hardware: V7.00
T1B2C 000:033.711   S/N: 20090928
T1B2C 000:033.716   OEM: SEGGER
T1B2C 000:033.722   Feature(s): RDI,FlashDL,FlashBP,JFlash,GDB
T1B2C 000:033.971   Bootloader: (Could not read)
T1B2C 000:034.643   TELNET listener socket opened on port 19021
T1B2C 000:034.761   WEBSRV WEBSRV_Init(): Starting webserver thread(s)
T1B2C 000:034.868   WEBSRV Webserver running on local port 19080
T1B2C 000:034.948   Looking for J-Link GUI Server exe at: C:\software\Keil_v5\ARM\Segger\JLinkGUIServer.exe
T1B2C 000:034.991   Looking for J-Link GUI Server exe at: C:\software\SEGGER\JLink_V794c\JLinkGUIServer.exe
T1B2C 000:035.019   Forking J-Link GUI Server: C:\software\SEGGER\JLink_V794c\JLinkGUIServer.exe
T1B2C 000:036.595   J-Link GUI Server info: "J-Link GUI server V7.94c "
T1B2C 000:037.711 - 8.276ms returns "O.K."
T1B2C 000:037.728 JLINK_GetEmuCaps()
T1B2C 000:037.735 - 0.005ms returns 0x88EA5833
T1B2C 000:037.742 JLINK_TIF_GetAvailable(...)
T1B2C 000:038.003 - 0.261ms
T1B2C 000:038.032 JLINK_SetErrorOutHandler(...)
T1B2C 000:038.036 - 0.004ms
T1B2C 000:038.052 JLINK_ExecCommand("ProjectFile = "D:\Workspace\TTL-POWER-1031\TTL-POWER-1031_Bootloader\MDK-ARM\JLinkSettings.ini"", ...). 
T1B2C 000:050.103   Ref file found at: C:\software\Keil_v5\ARM\Segger\JLinkDevices.ref
T1B2C 000:050.204   REF file references invalid XML file: C:\software\SEGGER\JLink_V794c\JLinkDevices.xml
T1B2C 000:051.273 - 13.221ms returns 0x00
T1B2C 000:053.149 JLINK_ExecCommand("Device = STM32F103CB", ...). 
T1B2C 000:054.700   Device "STM32F103CB" selected.
T1B2C 000:054.945 - 1.782ms returns 0x00
T1B2C 000:054.954 JLINK_ExecCommand("DisableConnectionTimeout", ...). 
T1B2C 000:054.961 - 0.001ms returns 0x01
T1B2C 000:054.967 JLINK_GetHardwareVersion()
T1B2C 000:054.974 - 0.004ms returns 70000
T1B2C 000:054.980 JLINK_GetDLLVersion()
T1B2C 000:054.984 - 0.003ms returns 79403
T1B2C 000:054.989 JLINK_GetOEMString(...)
T1B2C 000:054.994 JLINK_GetFirmwareString(...)
T1B2C 000:054.998 - 0.003ms
T1B2C 000:058.372 JLINK_GetDLLVersion()
T1B2C 000:058.382 - 0.009ms returns 79403
T1B2C 000:058.387 JLINK_GetCompileDateTime()
T1B2C 000:058.391 - 0.003ms
T1B2C 000:060.531 JLINK_GetFirmwareString(...)
T1B2C 000:060.542 - 0.010ms
T1B2C 000:061.719 JLINK_GetHardwareVersion()
T1B2C 000:061.729 - 0.010ms returns 70000
T1B2C 000:062.830 JLINK_GetSN()
T1B2C 000:062.839 - 0.009ms returns 20090928
T1B2C 000:064.035 JLINK_GetOEMString(...)
T1B2C 000:066.209 JLINK_TIF_Select(JLINKARM_TIF_SWD)
T1B2C 000:066.715 - 0.506ms returns 0x00
T1B2C 000:066.722 JLINK_HasError()
T1B2C 000:066.734 JLINK_SetSpeed(5000)
T1B2C 000:066.831 - 0.097ms
T1B2C 000:066.837 JLINK_GetId()
T1B2C 000:068.144   InitTarget() start
T1B2C 000:068.156    J-Link Script File: Executing InitTarget()
T1B2C 000:069.590   SWD selected. Executing JTAG -> SWD switching sequence.
T1B2C 000:074.340   DAP initialized successfully.
T1B2C 000:087.087   InitTarget() end - Took 17.6ms
T1B2C 000:089.143   Found SW-DP with ID 0x1BA01477
T1B2C 000:093.017   Old FW that does not support reading DPIDR via DAP jobs
T1B2C 000:098.014   DPv0 detected
T1B2C 000:099.132   CoreSight SoC-400 or earlier
T1B2C 000:100.271   Scanning AP map to find all available APs
T1B2C 000:104.116   AP[1]: Stopped AP scan as end of AP map has been reached
T1B2C 000:105.555   AP[0]: AHB-AP (IDR: 0x14770011)
T1B2C 000:106.695   Iterating through AP map to find AHB-AP to use
T1B2C 000:112.408   AP[0]: Core found
T1B2C 000:113.546   AP[0]: AHB-AP ROM base: 0xE00FF000
T1B2C 000:116.987   CPUID register: 0x411FC231. Implementer code: 0x41 (ARM)
T1B2C 000:118.350   Found Cortex-M3 r1p1, Little endian.
T1B2C 000:118.707   -- Max. mem block: 0x00002C18
T1B2C 000:119.111   CPU_ReadMem(4 bytes @ 0xE000EDF0)
T1B2C 000:119.644   CPU_ReadMem(4 bytes @ 0xE0002000)
T1B2C 000:121.270   FPUnit: 6 code (BP) slots and 2 literal slots
T1B2C 000:121.283   CPU_ReadMem(4 bytes @ 0xE000EDFC)
T1B2C 000:121.848   CPU_WriteMem(4 bytes @ 0xE000EDFC)
T1B2C 000:122.327   CPU_ReadMem(4 bytes @ 0xE0001000)
T1B2C 000:122.759   CPU_WriteMem(4 bytes @ 0xE0001000)
T1B2C 000:123.313   CPU_ReadMem(4 bytes @ 0xE000ED88)
T1B2C 000:123.871   CPU_WriteMem(4 bytes @ 0xE000ED88)
T1B2C 000:124.446   CPU_ReadMem(4 bytes @ 0xE000ED88)
T1B2C 000:124.955   CPU_WriteMem(4 bytes @ 0xE000ED88)
T1B2C 000:126.780   CoreSight components:
T1B2C 000:127.936   ROMTbl[0] @ E00FF000
T1B2C 000:127.948   CPU_ReadMem(64 bytes @ 0xE00FF000)
T1B2C 000:129.040   CPU_ReadMem(32 bytes @ 0xE000EFE0)
T1B2C 000:131.127   [0][0]: E000E000 CID B105E00D PID 001BB000 SCS
T1B2C 000:131.142   CPU_ReadMem(32 bytes @ 0xE0001FE0)
T1B2C 000:133.095   [0][1]: E0001000 CID B105E00D PID 001BB002 DWT
T1B2C 000:133.107   CPU_ReadMem(32 bytes @ 0xE0002FE0)
T1B2C 000:135.000   [0][2]: E0002000 CID B105E00D PID 000BB003 FPB
T1B2C 000:135.012   CPU_ReadMem(32 bytes @ 0xE0000FE0)
T1B2C 000:137.410   [0][3]: E0000000 CID B105E00D PID 001BB001 ITM
T1B2C 000:137.425   CPU_ReadMem(32 bytes @ 0xE0040FE0)
T1B2C 000:139.374   [0][4]: E0040000 CID B105900D PID 001BB923 TPIU-Lite
T1B2C 000:139.874 - 73.033ms returns 0x1BA01477
T1B2C 000:139.897 JLINK_GetDLLVersion()
T1B2C 000:139.901 - 0.003ms returns 79403
T1B2C 000:139.932 JLINK_CORE_GetFound()
T1B2C 000:139.938 - 0.005ms returns 0x30000FF
T1B2C 000:139.944 JLINK_GetDebugInfo(0x100 = JLINKARM_ROM_TABLE_ADDR_INDEX)
T1B2C 000:139.948   Value=0xE00FF000
T1B2C 000:139.953 - 0.009ms returns 0
T1B2C 000:141.091 JLINK_GetDebugInfo(0x100 = JLINKARM_ROM_TABLE_ADDR_INDEX)
T1B2C 000:141.099   Value=0xE00FF000
T1B2C 000:141.105 - 0.014ms returns 0
T1B2C 000:141.110 JLINK_GetDebugInfo(0x101 = JLINKARM_DEBUG_INFO_ETM_ADDR_INDEX)
T1B2C 000:141.114   Value=0x00000000
T1B2C 000:141.119 - 0.009ms returns 0
T1B2C 000:141.127 JLINK_ReadMemEx(0xE0041FF0, 0x10 Bytes, Flags = 0x02000004)
T1B2C 000:141.144   CPU_ReadMem(16 bytes @ 0xE0041FF0)
T1B2C 000:141.748   Data:  00 00 00 00 00 00 00 00 00 00 00 00 00 00 00 00
T1B2C 000:141.754 - 0.627ms returns 16 (0x10)
T1B2C 000:141.760 JLINK_GetDebugInfo(0x102 = JLINKARM_DEBUG_INFO_MTB_ADDR_INDEX)
T1B2C 000:141.763   Value=0x00000000
T1B2C 000:141.769 - 0.009ms returns 0
T1B2C 000:141.773 JLINK_GetDebugInfo(0x103 = JLINKARM_DEBUG_INFO_TPIU_ADDR_INDEX)
T1B2C 000:141.777   Value=0xE0040000
T1B2C 000:141.782 - 0.008ms returns 0
T1B2C 000:141.787 JLINK_GetDebugInfo(0x104 = JLINKARM_DEBUG_INFO_ITM_ADDR_INDEX)
T1B2C 000:141.790   Value=0xE0000000
T1B2C 000:141.796 - 0.008ms returns 0
T1B2C 000:141.800 JLINK_GetDebugInfo(0x105 = JLINKARM_DEBUG_INFO_DWT_ADDR_INDEX)
T1B2C 000:141.804   Value=0xE0001000
T1B2C 000:141.809 - 0.008ms returns 0
T1B2C 000:141.813 JLINK_GetDebugInfo(0x106 = JLINKARM_DEBUG_INFO_FPB_ADDR_INDEX)
T1B2C 000:141.817   Value=0xE0002000
T1B2C 000:141.825 - 0.012ms returns 0
T1B2C 000:141.830 JLINK_GetDebugInfo(0x107 = JLINKARM_DEBUG_INFO_NVIC_ADDR_INDEX)
T1B2C 000:141.834   Value=0xE000E000
T1B2C 000:141.848 - 0.017ms returns 0
T1B2C 000:141.852 JLINK_GetDebugInfo(0x10C = JLINKARM_DEBUG_INFO_DBG_ADDR_INDEX)
T1B2C 000:141.856   Value=0xE000EDF0
T1B2C 000:141.861 - 0.009ms returns 0
T1B2C 000:141.867 JLINK_GetDebugInfo(0x01 = Unknown)
T1B2C 000:141.871   Value=0x00000000
T1B2C 000:141.876 - 0.010ms returns 0
T1B2C 000:141.881 JLINK_ReadMemU32(0xE000ED00, 0x1 Items)
T1B2C 000:141.887   CPU_ReadMem(4 bytes @ 0xE000ED00)
T1B2C 000:142.453   Data:  31 C2 1F 41
T1B2C 000:142.483   Debug reg: CPUID
T1B2C 000:142.512 - 0.630ms returns 1 (0x1)
T1B2C 000:142.519 JLINK_GetDebugInfo(0x10F = JLINKARM_DEBUG_INFO_HAS_CORTEX_M_SECURITY_EXT_INDEX)
T1B2C 000:142.526   Value=0x00000000
T1B2C 000:142.532 - 0.013ms returns 0
T1B2C 000:142.537 JLINK_HasError()
T1B2C 000:142.542 JLINK_SetResetType(JLINKARM_CM3_RESET_TYPE_NORMAL)
T1B2C 000:142.546 - 0.003ms returns JLINKARM_CM3_RESET_TYPE_NORMAL
T1B2C 000:142.551 JLINK_Reset()
T1B2C 000:142.560   CPU is running
T1B2C 000:142.566   CPU_WriteMem(4 bytes @ 0xE000EDF0)
T1B2C 000:143.124   CPU is running
T1B2C 000:143.130   CPU_WriteMem(4 bytes @ 0xE000EDFC)
T1B2C 000:144.947   Reset: Halt core after reset via DEMCR.VC_CORERESET.
T1B2C 000:146.558   Reset: Reset device via AIRCR.SYSRESETREQ.
T1B2C 000:146.569   CPU is running
T1B2C 000:146.576   CPU_WriteMem(4 bytes @ 0xE000ED0C)
T1B2C 000:199.643   CPU_ReadMem(4 bytes @ 0xE000EDF0)
T1B2C 000:200.088   CPU_ReadMem(4 bytes @ 0xE000EDF0)
T1B2C 000:203.929   CPU_WriteMem(4 bytes @ 0xE000EDFC)
T1B2C 000:209.580   CPU_ReadMem(4 bytes @ 0xE000EDF0)
T1B2C 000:213.329   CPU_WriteMem(4 bytes @ 0xE0002000)
T1B2C 000:213.931   CPU_ReadMem(4 bytes @ 0xE000EDFC)
T1B2C 000:214.444   CPU_ReadMem(4 bytes @ 0xE0001000)
T1B2C 000:214.957 - 72.404ms
T1B2C 000:215.000 JLINK_Halt()
T1B2C 000:215.004 - 0.004ms returns 0x00
T1B2C 000:215.051 JLINK_ReadMemU32(0xE000EDF0, 0x1 Items)
T1B2C 000:215.059   CPU_ReadMem(4 bytes @ 0xE000EDF0)
T1B2C 000:215.530   Data:  03 00 03 00
T1B2C 000:215.567   Debug reg: DHCSR
T1B2C 000:215.577 - 0.526ms returns 1 (0x1)
T1B2C 000:215.585 JLINK_WriteU32_64(0xE000EDF0, 0xA05F0003)
T1B2C 000:215.589   Debug reg: DHCSR
T1B2C 000:215.796   CPU_WriteMem(4 bytes @ 0xE000EDF0)
T1B2C 000:216.298 - 0.711ms returns 0 (0x00000000)
T1B2C 000:216.329 JLINK_WriteU32_64(0xE000EDFC, 0x01000000)
T1B2C 000:216.348   Debug reg: DEMCR
T1B2C 000:216.355   CPU_WriteMem(4 bytes @ 0xE000EDFC)
T1B2C 000:216.815 - 0.485ms returns 0 (0x00000000)
T1B2C 000:221.582 JLINK_GetHWStatus(...)
T1B2C 000:221.785 - 0.203ms returns 0
T1B2C 000:224.959 JLINK_GetNumBPUnits(Type = 0xFFFFFF00)
T1B2C 000:224.968 - 0.009ms returns 0x06
T1B2C 000:224.973 JLINK_GetNumBPUnits(Type = 0xF0)
T1B2C 000:224.977 - 0.003ms returns 0x2000
T1B2C 000:224.982 JLINK_GetNumWPUnits()
T1B2C 000:224.985 - 0.003ms returns 4
T1B2C 000:228.124 JLINK_GetSpeed()
T1B2C 000:228.133 - 0.009ms returns 4000
T1B2C 000:230.270 JLINK_ReadMemU32(0xE000E004, 0x1 Items)
T1B2C 000:230.289   CPU_ReadMem(4 bytes @ 0xE000E004)
T1B2C 000:230.833   Data:  01 00 00 00
T1B2C 000:230.864 - 0.592ms returns 1 (0x1)
T1B2C 000:230.887 JLINK_ReadMemU32(0xE000E004, 0x1 Items)
T1B2C 000:230.893   CPU_ReadMem(4 bytes @ 0xE000E004)
T1B2C 000:231.327   Data:  01 00 00 00
T1B2C 000:231.333 - 0.446ms returns 1 (0x1)
T1B2C 000:231.339 JLINK_WriteMemEx(0xE0001000, 0x0000001C Bytes, Flags = 0x02000004)
T1B2C 000:231.343   Data:  01 00 00 00 00 00 00 00 00 00 00 00 00 00 00 00 ...
T1B2C 000:231.374   CPU_WriteMem(28 bytes @ 0xE0001000)
T1B2C 000:232.147 - 0.808ms returns 0x1C
T1B2C 000:232.156 JLINK_Halt()
T1B2C 000:232.161 - 0.004ms returns 0x00
T1B2C 000:232.165 JLINK_IsHalted()
T1B2C 000:232.170 - 0.004ms returns TRUE
T1B2C 000:233.718 JLINK_WriteMem(0x20000000, 0x164 Bytes, ...)
T1B2C 000:233.725   Data:  00 BE 0A E0 0D 78 2D 06 68 40 08 24 40 00 00 D3 ...
T1B2C 000:233.923   CPU_WriteMem(356 bytes @ 0x20000000)
T1B2C 000:238.581 - 4.860ms returns 0x164
T1B2C 000:238.641 JLINK_HasError()
T1B2C 000:238.648 JLINK_WriteReg(R0, 0x08000000)
T1B2C 000:238.658 - 0.010ms returns 0
T1B2C 000:238.663 JLINK_WriteReg(R1, 0x007A1200)
T1B2C 000:238.667 - 0.004ms returns 0
T1B2C 000:238.672 JLINK_WriteReg(R2, 0x00000001)
T1B2C 000:238.676 - 0.003ms returns 0
T1B2C 000:238.680 JLINK_WriteReg(R3, 0x00000000)
T1B2C 000:238.684 - 0.003ms returns 0
T1B2C 000:238.689 JLINK_WriteReg(R4, 0x00000000)
T1B2C 000:238.693 - 0.004ms returns 0
T1B2C 000:238.697 JLINK_WriteReg(R5, 0x00000000)
T1B2C 000:238.701 - 0.003ms returns 0
T1B2C 000:238.705 JLINK_WriteReg(R6, 0x00000000)
T1B2C 000:238.709 - 0.003ms returns 0
T1B2C 000:238.714 JLINK_WriteReg(R7, 0x00000000)
T1B2C 000:238.717 - 0.003ms returns 0
T1B2C 000:238.725 JLINK_WriteReg(R8, 0x00000000)
T1B2C 000:238.732 - 0.010ms returns 0
T1B2C 000:238.737 JLINK_WriteReg(R9, 0x20000160)
T1B2C 000:238.741 - 0.003ms returns 0
T1B2C 000:238.745 JLINK_WriteReg(R10, 0x00000000)
T1B2C 000:238.749 - 0.003ms returns 0
T1B2C 000:238.753 JLINK_WriteReg(R11, 0x00000000)
T1B2C 000:238.757 - 0.003ms returns 0
T1B2C 000:238.762 JLINK_WriteReg(R12, 0x00000000)
T1B2C 000:238.766 - 0.003ms returns 0
T1B2C 000:238.770 JLINK_WriteReg(R13 (SP), 0x20001000)
T1B2C 000:238.775 - 0.004ms returns 0
T1B2C 000:238.779 JLINK_WriteReg(R14, 0x20000001)
T1B2C 000:238.783 - 0.003ms returns 0
T1B2C 000:238.789 JLINK_WriteReg(R15 (PC), 0x20000038)
T1B2C 000:238.793 - 0.005ms returns 0
T1B2C 000:238.797 JLINK_WriteReg(XPSR, 0x01000000)
T1B2C 000:238.801 - 0.003ms returns 0
T1B2C 000:238.806 JLINK_WriteReg(MSP, 0x20001000)
T1B2C 000:238.810 - 0.003ms returns 0
T1B2C 000:238.814 JLINK_WriteReg(PSP, 0x20001000)
T1B2C 000:238.818 - 0.003ms returns 0
T1B2C 000:238.823 JLINK_WriteReg(CFBP, 0x00000000)
T1B2C 000:238.826 - 0.003ms returns 0
T1B2C 000:238.831 JLINK_SetBPEx(Addr = 0x20000000, Type = 0xFFFFFFF2)
T1B2C 000:238.838   CPU_ReadMem(2 bytes @ 0x20000000)
T1B2C 000:239.345 - 0.513ms returns 0x00000001
T1B2C 000:239.373 JLINK_Go()
T1B2C 000:239.393   CPU_WriteMem(2 bytes @ 0x20000000)
T1B2C 000:239.956   CPU_ReadMem(4 bytes @ 0xE0001000)
T1B2C 000:240.487   CPU_WriteMem(4 bytes @ 0xE0002008)
T1B2C 000:240.518   CPU_WriteMem(4 bytes @ 0xE000200C)
T1B2C 000:240.536   CPU_WriteMem(4 bytes @ 0xE0002010)
T1B2C 000:240.541   CPU_WriteMem(4 bytes @ 0xE0002014)
T1B2C 000:240.547   CPU_WriteMem(4 bytes @ 0xE0002018)
T1B2C 000:240.552   CPU_WriteMem(4 bytes @ 0xE000201C)
T1B2C 000:242.950   CPU_WriteMem(4 bytes @ 0xE0001004)
T1B2C 000:247.818   Memory map 'after startup completion point' is active
T1B2C 000:247.831 - 8.457ms
T1B2C 000:247.840 JLINK_IsHalted()
T1B2C 000:251.124   CPU_ReadMem(2 bytes @ 0x20000000)
T1B2C 000:251.621 - 3.779ms returns TRUE
T1B2C 000:251.653 JLINK_ReadReg(R15 (PC))
T1B2C 000:251.658 - 0.004ms returns 0x20000000
T1B2C 000:251.708 JLINK_ClrBPEx(BPHandle = 0x00000001)
T1B2C 000:251.713 - 0.004ms returns 0x00
T1B2C 000:251.717 JLINK_ReadReg(R0)
T1B2C 000:251.721 - 0.004ms returns 0x00000000
T1B2C 000:251.916 JLINK_HasError()
T1B2C 000:251.923 JLINK_WriteReg(R0, 0x08000000)
T1B2C 000:251.928 - 0.004ms returns 0
T1B2C 000:251.932 JLINK_WriteReg(R1, 0x007A1200)
T1B2C 000:251.936 - 0.003ms returns 0
T1B2C 000:251.941 JLINK_WriteReg(R2, 0x00000001)
T1B2C 000:251.945 - 0.003ms returns 0
T1B2C 000:251.949 JLINK_WriteReg(R3, 0x00000000)
T1B2C 000:251.953 - 0.003ms returns 0
T1B2C 000:251.957 JLINK_WriteReg(R4, 0x00000000)
T1B2C 000:251.961 - 0.003ms returns 0
T1B2C 000:251.966 JLINK_WriteReg(R5, 0x00000000)
T1B2C 000:251.970 - 0.003ms returns 0
T1B2C 000:251.974 JLINK_WriteReg(R6, 0x00000000)
T1B2C 000:251.978 - 0.003ms returns 0
T1B2C 000:251.982 JLINK_WriteReg(R7, 0x00000000)
T1B2C 000:251.986 - 0.003ms returns 0
T1B2C 000:251.991 JLINK_WriteReg(R8, 0x00000000)
T1B2C 000:251.995 - 0.004ms returns 0
T1B2C 000:251.999 JLINK_WriteReg(R9, 0x20000160)
T1B2C 000:252.003 - 0.003ms returns 0
T1B2C 000:252.007 JLINK_WriteReg(R10, 0x00000000)
T1B2C 000:252.011 - 0.003ms returns 0
T1B2C 000:252.016 JLINK_WriteReg(R11, 0x00000000)
T1B2C 000:252.020 - 0.003ms returns 0
T1B2C 000:252.024 JLINK_WriteReg(R12, 0x00000000)
T1B2C 000:252.028 - 0.003ms returns 0
T1B2C 000:252.033 JLINK_WriteReg(R13 (SP), 0x20001000)
T1B2C 000:252.037 - 0.004ms returns 0
T1B2C 000:252.041 JLINK_WriteReg(R14, 0x20000001)
T1B2C 000:252.045 - 0.003ms returns 0
T1B2C 000:252.050 JLINK_WriteReg(R15 (PC), 0x2000007C)
T1B2C 000:252.054 - 0.003ms returns 0
T1B2C 000:252.058 JLINK_WriteReg(XPSR, 0x01000000)
T1B2C 000:252.062 - 0.004ms returns 0
T1B2C 000:252.067 JLINK_WriteReg(MSP, 0x20001000)
T1B2C 000:252.070 - 0.003ms returns 0
T1B2C 000:252.075 JLINK_WriteReg(PSP, 0x20001000)
T1B2C 000:252.079 - 0.003ms returns 0
T1B2C 000:252.083 JLINK_WriteReg(CFBP, 0x00000000)
T1B2C 000:252.128 - 0.044ms returns 0
T1B2C 000:252.134 JLINK_SetBPEx(Addr = 0x20000000, Type = 0xFFFFFFF2)
T1B2C 000:252.139 - 0.004ms returns 0x00000002
T1B2C 000:252.143 JLINK_Go()
T1B2C 000:252.152   CPU_ReadMem(4 bytes @ 0xE0001000)
T1B2C 000:256.025 - 3.880ms
T1B2C 000:256.060 JLINK_IsHalted()
T1B2C 000:256.518 - 0.457ms returns FALSE
T1B2C 000:256.535 JLINK_HasError()
T1B2C 000:266.537 JLINK_IsHalted()
T1B2C 000:267.104 - 0.566ms returns FALSE
T1B2C 000:267.132 JLINK_HasError()
T1B2C 000:269.100 JLINK_IsHalted()
T1B2C 000:269.585 - 0.485ms returns FALSE
T1B2C 000:269.592 JLINK_HasError()
T1B2C 000:272.106 JLINK_IsHalted()
T1B2C 000:272.591 - 0.484ms returns FALSE
T1B2C 000:272.621 JLINK_HasError()
T1B2C 000:274.086 JLINK_IsHalted()
T1B2C 000:274.573 - 0.487ms returns FALSE
T1B2C 000:274.604 JLINK_HasError()
T1B2C 000:276.134 JLINK_IsHalted()
T1B2C 000:276.610 - 0.477ms returns FALSE
T1B2C 000:276.635 JLINK_HasError()
T1B2C 000:278.130 JLINK_IsHalted()
T1B2C 000:281.340   CPU_ReadMem(2 bytes @ 0x20000000)
T1B2C 000:281.868 - 3.736ms returns TRUE
T1B2C 000:281.884 JLINK_ReadReg(R15 (PC))
T1B2C 000:281.889 - 0.005ms returns 0x20000000
T1B2C 000:281.894 JLINK_ClrBPEx(BPHandle = 0x00000002)
T1B2C 000:281.898 - 0.004ms returns 0x00
T1B2C 000:281.903 JLINK_ReadReg(R0)
T1B2C 000:281.907 - 0.004ms returns 0x00000000
T1B2C 000:332.855 JLINK_HasError()
T1B2C 000:332.873 JLINK_WriteReg(R0, 0x00000001)
T1B2C 000:332.882 - 0.009ms returns 0
T1B2C 000:332.887 JLINK_WriteReg(R1, 0x007A1200)
T1B2C 000:332.891 - 0.004ms returns 0
T1B2C 000:332.896 JLINK_WriteReg(R2, 0x00000001)
T1B2C 000:332.899 - 0.003ms returns 0
T1B2C 000:332.904 JLINK_WriteReg(R3, 0x00000000)
T1B2C 000:332.908 - 0.003ms returns 0
T1B2C 000:332.912 JLINK_WriteReg(R4, 0x00000000)
T1B2C 000:332.916 - 0.003ms returns 0
T1B2C 000:332.921 JLINK_WriteReg(R5, 0x00000000)
T1B2C 000:332.924 - 0.003ms returns 0
T1B2C 000:332.929 JLINK_WriteReg(R6, 0x00000000)
T1B2C 000:332.933 - 0.003ms returns 0
T1B2C 000:332.937 JLINK_WriteReg(R7, 0x00000000)
T1B2C 000:332.941 - 0.003ms returns 0
T1B2C 000:332.946 JLINK_WriteReg(R8, 0x00000000)
T1B2C 000:332.950 - 0.003ms returns 0
T1B2C 000:332.954 JLINK_WriteReg(R9, 0x20000160)
T1B2C 000:332.958 - 0.003ms returns 0
T1B2C 000:332.963 JLINK_WriteReg(R10, 0x00000000)
T1B2C 000:332.966 - 0.004ms returns 0
T1B2C 000:332.971 JLINK_WriteReg(R11, 0x00000000)
T1B2C 000:332.975 - 0.003ms returns 0
T1B2C 000:332.979 JLINK_WriteReg(R12, 0x00000000)
T1B2C 000:332.983 - 0.003ms returns 0
T1B2C 000:332.988 JLINK_WriteReg(R13 (SP), 0x20001000)
T1B2C 000:332.993 - 0.004ms returns 0
T1B2C 000:332.997 JLINK_WriteReg(R14, 0x20000001)
T1B2C 000:333.001 - 0.004ms returns 0
T1B2C 000:333.006 JLINK_WriteReg(R15 (PC), 0x2000006A)
T1B2C 000:333.010 - 0.004ms returns 0
T1B2C 000:333.014 JLINK_WriteReg(XPSR, 0x01000000)
T1B2C 000:333.018 - 0.004ms returns 0
T1B2C 000:333.022 JLINK_WriteReg(MSP, 0x20001000)
T1B2C 000:333.026 - 0.003ms returns 0
T1B2C 000:333.031 JLINK_WriteReg(PSP, 0x20001000)
T1B2C 000:333.035 - 0.003ms returns 0
T1B2C 000:333.039 JLINK_WriteReg(CFBP, 0x00000000)
T1B2C 000:333.043 - 0.003ms returns 0
T1B2C 000:333.048 JLINK_SetBPEx(Addr = 0x20000000, Type = 0xFFFFFFF2)
T1B2C 000:333.053 - 0.005ms returns 0x00000003
T1B2C 000:333.058 JLINK_Go()
T1B2C 000:333.072   CPU_ReadMem(4 bytes @ 0xE0001000)
T1B2C 000:336.767 - 3.707ms
T1B2C 000:336.811 JLINK_IsHalted()
T1B2C 000:340.036   CPU_ReadMem(2 bytes @ 0x20000000)
T1B2C 000:340.546 - 3.734ms returns TRUE
T1B2C 000:340.559 JLINK_ReadReg(R15 (PC))
T1B2C 000:340.566 - 0.006ms returns 0x20000000
T1B2C 000:340.571 JLINK_ClrBPEx(BPHandle = 0x00000003)
T1B2C 000:340.576 - 0.004ms returns 0x00
T1B2C 000:340.581 JLINK_ReadReg(R0)
T1B2C 000:340.585 - 0.004ms returns 0x00000000
T1B2C 000:343.501 JLINK_WriteMem(0x20000000, 0x164 Bytes, ...)
T1B2C 000:343.508   Data:  00 BE 0A E0 0D 78 2D 06 68 40 08 24 40 00 00 D3 ...
T1B2C 000:343.521   CPU_WriteMem(356 bytes @ 0x20000000)
T1B2C 000:348.241 - 4.739ms returns 0x164
T1B2C 000:348.281 JLINK_HasError()
T1B2C 000:348.288 JLINK_WriteReg(R0, 0x08000000)
T1B2C 000:348.294 - 0.005ms returns 0
T1B2C 000:348.299 JLINK_WriteReg(R1, 0x007A1200)
T1B2C 000:348.303 - 0.004ms returns 0
T1B2C 000:348.307 JLINK_WriteReg(R2, 0x00000002)
T1B2C 000:348.311 - 0.004ms returns 0
T1B2C 000:348.316 JLINK_WriteReg(R3, 0x00000000)
T1B2C 000:348.320 - 0.003ms returns 0
T1B2C 000:348.324 JLINK_WriteReg(R4, 0x00000000)
T1B2C 000:348.328 - 0.003ms returns 0
T1B2C 000:348.332 JLINK_WriteReg(R5, 0x00000000)
T1B2C 000:348.336 - 0.003ms returns 0
T1B2C 000:348.341 JLINK_WriteReg(R6, 0x00000000)
T1B2C 000:348.345 - 0.003ms returns 0
T1B2C 000:348.349 JLINK_WriteReg(R7, 0x00000000)
T1B2C 000:348.353 - 0.003ms returns 0
T1B2C 000:348.357 JLINK_WriteReg(R8, 0x00000000)
T1B2C 000:348.361 - 0.004ms returns 0
T1B2C 000:348.366 JLINK_WriteReg(R9, 0x20000160)
T1B2C 000:348.370 - 0.003ms returns 0
T1B2C 000:348.374 JLINK_WriteReg(R10, 0x00000000)
T1B2C 000:348.378 - 0.003ms returns 0
T1B2C 000:348.382 JLINK_WriteReg(R11, 0x00000000)
T1B2C 000:348.386 - 0.003ms returns 0
T1B2C 000:348.391 JLINK_WriteReg(R12, 0x00000000)
T1B2C 000:348.395 - 0.003ms returns 0
T1B2C 000:348.399 JLINK_WriteReg(R13 (SP), 0x20001000)
T1B2C 000:348.404 - 0.004ms returns 0
T1B2C 000:348.408 JLINK_WriteReg(R14, 0x20000001)
T1B2C 000:348.412 - 0.003ms returns 0
T1B2C 000:348.417 JLINK_WriteReg(R15 (PC), 0x20000038)
T1B2C 000:348.421 - 0.003ms returns 0
T1B2C 000:348.425 JLINK_WriteReg(XPSR, 0x01000000)
T1B2C 000:348.429 - 0.004ms returns 0
T1B2C 000:348.434 JLINK_WriteReg(MSP, 0x20001000)
T1B2C 000:348.438 - 0.003ms returns 0
T1B2C 000:348.442 JLINK_WriteReg(PSP, 0x20001000)
T1B2C 000:348.446 - 0.003ms returns 0
T1B2C 000:348.451 JLINK_WriteReg(CFBP, 0x00000000)
T1B2C 000:348.455 - 0.004ms returns 0
T1B2C 000:348.459 JLINK_SetBPEx(Addr = 0x20000000, Type = 0xFFFFFFF2)
T1B2C 000:348.465   CPU_ReadMem(2 bytes @ 0x20000000)
T1B2C 000:348.976 - 0.516ms returns 0x00000004
T1B2C 000:349.004 JLINK_Go()
T1B2C 000:349.009   CPU_WriteMem(2 bytes @ 0x20000000)
T1B2C 000:349.505   CPU_ReadMem(4 bytes @ 0xE0001000)
T1B2C 000:353.209 - 4.203ms
T1B2C 000:353.226 JLINK_IsHalted()
T1B2C 000:356.332   CPU_ReadMem(2 bytes @ 0x20000000)
T1B2C 000:356.891 - 3.664ms returns TRUE
T1B2C 000:356.917 JLINK_ReadReg(R15 (PC))
T1B2C 000:356.923 - 0.005ms returns 0x20000000
T1B2C 000:356.953 JLINK_ClrBPEx(BPHandle = 0x00000004)
T1B2C 000:356.958 - 0.004ms returns 0x00
T1B2C 000:356.963 JLINK_ReadReg(R0)
T1B2C 000:356.967 - 0.004ms returns 0x00000000
T1B2C 000:357.169 JLINK_WriteMem(0x20000164, 0x29C Bytes, ...)
T1B2C 000:357.175   Data:  88 40 00 20 05 01 00 08 8F 18 00 08 CD 17 00 08 ...
T1B2C 000:357.186   CPU_WriteMem(668 bytes @ 0x20000164)
T1B2C 000:365.469 - 8.298ms returns 0x29C
T1B2C 000:365.508 JLINK_WriteMem(0x20000400, 0x164 Bytes, ...)
T1B2C 000:365.514   Data:  61 64 65 20 71 75 69 74 00 00 00 00 5C 02 00 20 ...
T1B2C 000:365.530   CPU_WriteMem(356 bytes @ 0x20000400)
T1B2C 000:370.211 - 4.701ms returns 0x164
T1B2C 000:370.242 JLINK_HasError()
T1B2C 000:370.248 JLINK_WriteReg(R0, 0x08000000)
T1B2C 000:370.254 - 0.006ms returns 0
T1B2C 000:370.259 JLINK_WriteReg(R1, 0x00000400)
T1B2C 000:370.263 - 0.004ms returns 0
T1B2C 000:370.267 JLINK_WriteReg(R2, 0x20000164)
T1B2C 000:370.271 - 0.003ms returns 0
T1B2C 000:370.276 JLINK_WriteReg(R3, 0x00000000)
T1B2C 000:370.280 - 0.004ms returns 0
T1B2C 000:370.284 JLINK_WriteReg(R4, 0x00000000)
T1B2C 000:370.288 - 0.003ms returns 0
T1B2C 000:370.293 JLINK_WriteReg(R5, 0x00000000)
T1B2C 000:370.296 - 0.003ms returns 0
T1B2C 000:370.301 JLINK_WriteReg(R6, 0x00000000)
T1B2C 000:370.305 - 0.004ms returns 0
T1B2C 000:370.309 JLINK_WriteReg(R7, 0x00000000)
T1B2C 000:370.313 - 0.003ms returns 0
T1B2C 000:370.318 JLINK_WriteReg(R8, 0x00000000)
T1B2C 000:370.322 - 0.004ms returns 0
T1B2C 000:370.326 JLINK_WriteReg(R9, 0x20000160)
T1B2C 000:370.330 - 0.003ms returns 0
T1B2C 000:370.334 JLINK_WriteReg(R10, 0x00000000)
T1B2C 000:370.338 - 0.003ms returns 0
T1B2C 000:370.346 JLINK_WriteReg(R11, 0x00000000)
T1B2C 000:370.351 - 0.005ms returns 0
T1B2C 000:370.356 JLINK_WriteReg(R12, 0x00000000)
T1B2C 000:370.360 - 0.003ms returns 0
T1B2C 000:370.364 JLINK_WriteReg(R13 (SP), 0x20001000)
T1B2C 000:370.368 - 0.004ms returns 0
T1B2C 000:370.373 JLINK_WriteReg(R14, 0x20000001)
T1B2C 000:370.377 - 0.003ms returns 0
T1B2C 000:370.381 JLINK_WriteReg(R15 (PC), 0x200000F4)
T1B2C 000:370.385 - 0.004ms returns 0
T1B2C 000:370.391 JLINK_WriteReg(XPSR, 0x01000000)
T1B2C 000:370.395 - 0.004ms returns 0
T1B2C 000:370.400 JLINK_WriteReg(MSP, 0x20001000)
T1B2C 000:370.403 - 0.003ms returns 0
T1B2C 000:370.408 JLINK_WriteReg(PSP, 0x20001000)
T1B2C 000:370.412 - 0.003ms returns 0
T1B2C 000:370.416 JLINK_WriteReg(CFBP, 0x00000000)
T1B2C 000:370.420 - 0.003ms returns 0
T1B2C 000:370.425 JLINK_SetBPEx(Addr = 0x20000000, Type = 0xFFFFFFF2)
T1B2C 000:370.429 - 0.004ms returns 0x00000005
T1B2C 000:370.434 JLINK_Go()
T1B2C 000:370.443   CPU_ReadMem(4 bytes @ 0xE0001000)
T1B2C 000:374.227 - 3.792ms
T1B2C 000:374.261 JLINK_IsHalted()
T1B2C 000:374.743 - 0.480ms returns FALSE
T1B2C 000:374.773 JLINK_HasError()
T1B2C 000:397.439 JLINK_IsHalted()
T1B2C 000:398.017 - 0.578ms returns FALSE
T1B2C 000:398.028 JLINK_HasError()
T1B2C 000:399.407 JLINK_IsHalted()
T1B2C 000:399.790 - 0.383ms returns FALSE
T1B2C 000:399.798 JLINK_HasError()
T1B2C 000:401.212 JLINK_IsHalted()
T1B2C 000:401.625 - 0.411ms returns FALSE
T1B2C 000:401.636 JLINK_HasError()
T1B2C 000:402.806 JLINK_IsHalted()
T1B2C 000:403.282 - 0.476ms returns FALSE
T1B2C 000:403.302 JLINK_HasError()
T1B2C 000:404.353 JLINK_IsHalted()
T1B2C 000:404.801 - 0.447ms returns FALSE
T1B2C 000:404.809 JLINK_HasError()
T1B2C 000:406.354 JLINK_IsHalted()
T1B2C 000:409.512   CPU_ReadMem(2 bytes @ 0x20000000)
T1B2C 000:410.017 - 3.662ms returns TRUE
T1B2C 000:410.028 JLINK_ReadReg(R15 (PC))
T1B2C 000:410.034 - 0.005ms returns 0x20000000
T1B2C 000:410.117 JLINK_ClrBPEx(BPHandle = 0x00000005)
T1B2C 000:410.124 - 0.006ms returns 0x00
T1B2C 000:410.131 JLINK_ReadReg(R0)
T1B2C 000:410.137 - 0.004ms returns 0x00000000
T1B2C 000:410.642 JLINK_WriteMem(0x20000164, 0x29C Bytes, ...)
T1B2C 000:410.651   Data:  01 61 00 20 70 47 00 00 00 20 02 40 2D E9 F0 5F ...
T1B2C 000:410.663   CPU_WriteMem(668 bytes @ 0x20000164)
T1B2C 000:418.856 - 8.212ms returns 0x29C
T1B2C 000:418.876 JLINK_WriteMem(0x20000400, 0x164 Bytes, ...)
T1B2C 000:418.880   Data:  FB E7 00 00 01 48 80 68 70 47 00 00 88 00 00 20 ...
T1B2C 000:418.898   CPU_WriteMem(356 bytes @ 0x20000400)
T1B2C 000:423.594 - 4.716ms returns 0x164
T1B2C 000:423.637 JLINK_HasError()
T1B2C 000:423.647 JLINK_WriteReg(R0, 0x08000400)
T1B2C 000:423.654 - 0.007ms returns 0
T1B2C 000:423.659 JLINK_WriteReg(R1, 0x00000400)
T1B2C 000:423.663 - 0.004ms returns 0
T1B2C 000:423.667 JLINK_WriteReg(R2, 0x20000164)
T1B2C 000:423.671 - 0.004ms returns 0
T1B2C 000:423.676 JLINK_WriteReg(R3, 0x00000000)
T1B2C 000:423.680 - 0.003ms returns 0
T1B2C 000:423.684 JLINK_WriteReg(R4, 0x00000000)
T1B2C 000:423.688 - 0.003ms returns 0
T1B2C 000:423.693 JLINK_WriteReg(R5, 0x00000000)
T1B2C 000:423.696 - 0.003ms returns 0
T1B2C 000:423.701 JLINK_WriteReg(R6, 0x00000000)
T1B2C 000:423.705 - 0.003ms returns 0
T1B2C 000:423.709 JLINK_WriteReg(R7, 0x00000000)
T1B2C 000:423.713 - 0.003ms returns 0
T1B2C 000:423.718 JLINK_WriteReg(R8, 0x00000000)
T1B2C 000:423.722 - 0.003ms returns 0
T1B2C 000:423.726 JLINK_WriteReg(R9, 0x20000160)
T1B2C 000:423.730 - 0.003ms returns 0
T1B2C 000:423.734 JLINK_WriteReg(R10, 0x00000000)
T1B2C 000:423.738 - 0.003ms returns 0
T1B2C 000:423.743 JLINK_WriteReg(R11, 0x00000000)
T1B2C 000:423.747 - 0.003ms returns 0
T1B2C 000:423.751 JLINK_WriteReg(R12, 0x00000000)
T1B2C 000:423.755 - 0.003ms returns 0
T1B2C 000:423.760 JLINK_WriteReg(R13 (SP), 0x20001000)
T1B2C 000:423.764 - 0.004ms returns 0
T1B2C 000:423.769 JLINK_WriteReg(R14, 0x20000001)
T1B2C 000:423.773 - 0.003ms returns 0
T1B2C 000:423.777 JLINK_WriteReg(R15 (PC), 0x200000F4)
T1B2C 000:423.781 - 0.003ms returns 0
T1B2C 000:423.790 JLINK_WriteReg(XPSR, 0x01000000)
T1B2C 000:423.794 - 0.004ms returns 0
T1B2C 000:423.798 JLINK_WriteReg(MSP, 0x20001000)
T1B2C 000:423.802 - 0.003ms returns 0
T1B2C 000:423.807 JLINK_WriteReg(PSP, 0x20001000)
T1B2C 000:423.811 - 0.004ms returns 0
T1B2C 000:423.815 JLINK_WriteReg(CFBP, 0x00000000)
T1B2C 000:423.819 - 0.003ms returns 0
T1B2C 000:423.824 JLINK_SetBPEx(Addr = 0x20000000, Type = 0xFFFFFFF2)
T1B2C 000:423.829 - 0.005ms returns 0x00000006
T1B2C 000:423.833 JLINK_Go()
T1B2C 000:423.843   CPU_ReadMem(4 bytes @ 0xE0001000)
T1B2C 000:427.576 - 3.741ms
T1B2C 000:427.605 JLINK_IsHalted()
T1B2C 000:428.042 - 0.437ms returns FALSE
T1B2C 000:428.049 JLINK_HasError()
T1B2C 000:429.804 JLINK_IsHalted()
T1B2C 000:430.296 - 0.491ms returns FALSE
T1B2C 000:430.325 JLINK_HasError()
T1B2C 000:431.789 JLINK_IsHalted()
T1B2C 000:432.236 - 0.447ms returns FALSE
T1B2C 000:432.243 JLINK_HasError()
T1B2C 000:433.764 JLINK_IsHalted()
T1B2C 000:434.231 - 0.466ms returns FALSE
T1B2C 000:434.250 JLINK_HasError()
T1B2C 000:435.828 JLINK_IsHalted()
T1B2C 000:436.300 - 0.471ms returns FALSE
T1B2C 000:436.306 JLINK_HasError()
T1B2C 000:438.290 JLINK_IsHalted()
T1B2C 000:438.838 - 0.548ms returns FALSE
T1B2C 000:438.868 JLINK_HasError()
T1B2C 000:440.313 JLINK_IsHalted()
T1B2C 000:440.819 - 0.506ms returns FALSE
T1B2C 000:440.842 JLINK_HasError()
T1B2C 000:442.821 JLINK_IsHalted()
T1B2C 000:443.295 - 0.472ms returns FALSE
T1B2C 000:443.317 JLINK_HasError()
T1B2C 000:444.804 JLINK_IsHalted()
T1B2C 000:445.190 - 0.384ms returns FALSE
T1B2C 000:445.217 JLINK_HasError()
T1B2C 000:447.192 JLINK_IsHalted()
T1B2C 000:447.754 - 0.561ms returns FALSE
T1B2C 000:447.783 JLINK_HasError()
T1B2C 000:449.201 JLINK_IsHalted()
T1B2C 000:449.627 - 0.427ms returns FALSE
T1B2C 000:449.639 JLINK_HasError()
T1B2C 000:452.197 JLINK_IsHalted()
T1B2C 000:452.756 - 0.558ms returns FALSE
T1B2C 000:452.788 JLINK_HasError()
T1B2C 000:454.195 JLINK_IsHalted()
T1B2C 000:454.757 - 0.561ms returns FALSE
T1B2C 000:454.770 JLINK_HasError()
T1B2C 000:456.815 JLINK_IsHalted()
T1B2C 000:457.316 - 0.501ms returns FALSE
T1B2C 000:457.345 JLINK_HasError()
T1B2C 000:458.757 JLINK_IsHalted()
T1B2C 000:461.885   CPU_ReadMem(2 bytes @ 0x20000000)
T1B2C 000:462.493 - 3.734ms returns TRUE
T1B2C 000:462.531 JLINK_ReadReg(R15 (PC))
T1B2C 000:462.551 - 0.020ms returns 0x20000000
T1B2C 000:462.579 JLINK_ClrBPEx(BPHandle = 0x00000006)
T1B2C 000:462.584 - 0.004ms returns 0x00
T1B2C 000:462.589 JLINK_ReadReg(R0)
T1B2C 000:462.593 - 0.004ms returns 0x00000000
T1B2C 000:463.097 JLINK_WriteMem(0x20000164, 0x29C Bytes, ...)
T1B2C 000:463.103   Data:  00 22 02 73 C1 80 F9 E7 70 47 01 EB 81 02 00 EB ...
T1B2C 000:463.115   CPU_WriteMem(668 bytes @ 0x20000164)
T1B2C 000:471.380 - 8.279ms returns 0x29C
T1B2C 000:471.411 JLINK_WriteMem(0x20000400, 0x164 Bytes, ...)
T1B2C 000:471.416   Data:  05 E0 B0 F8 50 20 10 44 22 78 00 EB 02 10 A0 F8 ...
T1B2C 000:471.428   CPU_WriteMem(356 bytes @ 0x20000400)
T1B2C 000:476.173 - 4.761ms returns 0x164
T1B2C 000:476.204 JLINK_HasError()
T1B2C 000:476.230 JLINK_WriteReg(R0, 0x08000800)
T1B2C 000:476.236 - 0.005ms returns 0
T1B2C 000:476.240 JLINK_WriteReg(R1, 0x00000400)
T1B2C 000:476.244 - 0.004ms returns 0
T1B2C 000:476.249 JLINK_WriteReg(R2, 0x20000164)
T1B2C 000:476.253 - 0.003ms returns 0
T1B2C 000:476.257 JLINK_WriteReg(R3, 0x00000000)
T1B2C 000:476.261 - 0.003ms returns 0
T1B2C 000:476.265 JLINK_WriteReg(R4, 0x00000000)
T1B2C 000:476.269 - 0.003ms returns 0
T1B2C 000:476.274 JLINK_WriteReg(R5, 0x00000000)
T1B2C 000:476.278 - 0.003ms returns 0
T1B2C 000:476.282 JLINK_WriteReg(R6, 0x00000000)
T1B2C 000:476.286 - 0.003ms returns 0
T1B2C 000:476.290 JLINK_WriteReg(R7, 0x00000000)
T1B2C 000:476.294 - 0.003ms returns 0
T1B2C 000:476.299 JLINK_WriteReg(R8, 0x00000000)
T1B2C 000:476.303 - 0.003ms returns 0
T1B2C 000:476.307 JLINK_WriteReg(R9, 0x20000160)
T1B2C 000:476.311 - 0.003ms returns 0
T1B2C 000:476.315 JLINK_WriteReg(R10, 0x00000000)
T1B2C 000:476.356 - 0.040ms returns 0
T1B2C 000:476.363 JLINK_WriteReg(R11, 0x00000000)
T1B2C 000:476.367 - 0.003ms returns 0
T1B2C 000:476.371 JLINK_WriteReg(R12, 0x00000000)
T1B2C 000:476.375 - 0.003ms returns 0
T1B2C 000:476.380 JLINK_WriteReg(R13 (SP), 0x20001000)
T1B2C 000:476.384 - 0.004ms returns 0
T1B2C 000:476.389 JLINK_WriteReg(R14, 0x20000001)
T1B2C 000:476.392 - 0.003ms returns 0
T1B2C 000:476.397 JLINK_WriteReg(R15 (PC), 0x200000F4)
T1B2C 000:476.401 - 0.004ms returns 0
T1B2C 000:476.406 JLINK_WriteReg(XPSR, 0x01000000)
T1B2C 000:476.409 - 0.003ms returns 0
T1B2C 000:476.414 JLINK_WriteReg(MSP, 0x20001000)
T1B2C 000:476.418 - 0.003ms returns 0
T1B2C 000:476.422 JLINK_WriteReg(PSP, 0x20001000)
T1B2C 000:476.426 - 0.003ms returns 0
T1B2C 000:476.431 JLINK_WriteReg(CFBP, 0x00000000)
T1B2C 000:476.435 - 0.003ms returns 0
T1B2C 000:476.439 JLINK_SetBPEx(Addr = 0x20000000, Type = 0xFFFFFFF2)
T1B2C 000:476.444 - 0.004ms returns 0x00000007
T1B2C 000:476.449 JLINK_Go()
T1B2C 000:476.458   CPU_ReadMem(4 bytes @ 0xE0001000)
T1B2C 000:480.046 - 3.597ms
T1B2C 000:480.054 JLINK_IsHalted()
T1B2C 000:480.440 - 0.385ms returns FALSE
T1B2C 000:480.447 JLINK_HasError()
T1B2C 000:481.850 JLINK_IsHalted()
T1B2C 000:482.341 - 0.490ms returns FALSE
T1B2C 000:482.363 JLINK_HasError()
T1B2C 000:483.849 JLINK_IsHalted()
T1B2C 000:484.357 - 0.507ms returns FALSE
T1B2C 000:484.385 JLINK_HasError()
T1B2C 000:485.847 JLINK_IsHalted()
T1B2C 000:486.412 - 0.565ms returns FALSE
T1B2C 000:486.420 JLINK_HasError()
T1B2C 000:487.849 JLINK_IsHalted()
T1B2C 000:488.319 - 0.469ms returns FALSE
T1B2C 000:488.340 JLINK_HasError()
T1B2C 000:489.841 JLINK_IsHalted()
T1B2C 000:490.241 - 0.400ms returns FALSE
T1B2C 000:490.263 JLINK_HasError()
T1B2C 000:491.850 JLINK_IsHalted()
T1B2C 000:492.368 - 0.518ms returns FALSE
T1B2C 000:492.395 JLINK_HasError()
T1B2C 000:493.860 JLINK_IsHalted()
T1B2C 000:494.422 - 0.561ms returns FALSE
T1B2C 000:494.428 JLINK_HasError()
T1B2C 000:496.887 JLINK_IsHalted()
T1B2C 000:497.450 - 0.562ms returns FALSE
T1B2C 000:497.481 JLINK_HasError()
T1B2C 000:498.874 JLINK_IsHalted()
T1B2C 000:499.368 - 0.493ms returns FALSE
T1B2C 000:499.395 JLINK_HasError()
T1B2C 000:501.433 JLINK_IsHalted()
T1B2C 000:501.923 - 0.489ms returns FALSE
T1B2C 000:501.952 JLINK_HasError()
T1B2C 000:503.866 JLINK_IsHalted()
T1B2C 000:504.367 - 0.500ms returns FALSE
T1B2C 000:504.385 JLINK_HasError()
T1B2C 000:506.369 JLINK_IsHalted()
T1B2C 000:506.892 - 0.522ms returns FALSE
T1B2C 000:506.919 JLINK_HasError()
T1B2C 000:508.879 JLINK_IsHalted()
T1B2C 000:509.330 - 0.450ms returns FALSE
T1B2C 000:509.335 JLINK_HasError()
T1B2C 000:510.880 JLINK_IsHalted()
T1B2C 000:514.134   CPU_ReadMem(2 bytes @ 0x20000000)
T1B2C 000:514.684 - 3.803ms returns TRUE
T1B2C 000:514.727 JLINK_ReadReg(R15 (PC))
T1B2C 000:514.737 - 0.010ms returns 0x20000000
T1B2C 000:514.767 JLINK_ClrBPEx(BPHandle = 0x00000007)
T1B2C 000:514.772 - 0.004ms returns 0x00
T1B2C 000:514.777 JLINK_ReadReg(R0)
T1B2C 000:514.781 - 0.004ms returns 0x00000000
T1B2C 000:515.088 JLINK_WriteMem(0x20000164, 0x29C Bytes, ...)
T1B2C 000:515.095   Data:  41 F4 00 41 05 E0 B0 F8 50 20 10 44 22 78 00 EB ...
T1B2C 000:515.107   CPU_WriteMem(668 bytes @ 0x20000164)
T1B2C 000:523.237 - 8.149ms returns 0x29C
T1B2C 000:523.266 JLINK_WriteMem(0x20000400, 0x164 Bytes, ...)
T1B2C 000:523.270   Data:  30 F8 40 1F 21 F0 08 01 01 80 20 46 00 F0 FD F8 ...
T1B2C 000:523.279   CPU_WriteMem(356 bytes @ 0x20000400)
T1B2C 000:527.986 - 4.719ms returns 0x164
T1B2C 000:528.002 JLINK_HasError()
T1B2C 000:528.008 JLINK_WriteReg(R0, 0x08000C00)
T1B2C 000:528.017 - 0.008ms returns 0
T1B2C 000:528.021 JLINK_WriteReg(R1, 0x00000400)
T1B2C 000:528.025 - 0.004ms returns 0
T1B2C 000:528.030 JLINK_WriteReg(R2, 0x20000164)
T1B2C 000:528.034 - 0.003ms returns 0
T1B2C 000:528.039 JLINK_WriteReg(R3, 0x00000000)
T1B2C 000:528.043 - 0.004ms returns 0
T1B2C 000:528.047 JLINK_WriteReg(R4, 0x00000000)
T1B2C 000:528.051 - 0.003ms returns 0
T1B2C 000:528.055 JLINK_WriteReg(R5, 0x00000000)
T1B2C 000:528.064 - 0.008ms returns 0
T1B2C 000:528.069 JLINK_WriteReg(R6, 0x00000000)
T1B2C 000:528.072 - 0.003ms returns 0
T1B2C 000:528.077 JLINK_WriteReg(R7, 0x00000000)
T1B2C 000:528.081 - 0.003ms returns 0
T1B2C 000:528.087 JLINK_WriteReg(R8, 0x00000000)
T1B2C 000:528.090 - 0.004ms returns 0
T1B2C 000:528.095 JLINK_WriteReg(R9, 0x20000160)
T1B2C 000:528.099 - 0.003ms returns 0
T1B2C 000:528.103 JLINK_WriteReg(R10, 0x00000000)
T1B2C 000:528.107 - 0.003ms returns 0
T1B2C 000:528.112 JLINK_WriteReg(R11, 0x00000000)
T1B2C 000:528.116 - 0.004ms returns 0
T1B2C 000:528.120 JLINK_WriteReg(R12, 0x00000000)
T1B2C 000:528.124 - 0.003ms returns 0
T1B2C 000:528.129 JLINK_WriteReg(R13 (SP), 0x20001000)
T1B2C 000:528.133 - 0.004ms returns 0
T1B2C 000:528.138 JLINK_WriteReg(R14, 0x20000001)
T1B2C 000:528.141 - 0.003ms returns 0
T1B2C 000:528.146 JLINK_WriteReg(R15 (PC), 0x200000F4)
T1B2C 000:528.150 - 0.004ms returns 0
T1B2C 000:528.155 JLINK_WriteReg(XPSR, 0x01000000)
T1B2C 000:528.159 - 0.004ms returns 0
T1B2C 000:528.163 JLINK_WriteReg(MSP, 0x20001000)
T1B2C 000:528.167 - 0.003ms returns 0
T1B2C 000:528.171 JLINK_WriteReg(PSP, 0x20001000)
T1B2C 000:528.175 - 0.003ms returns 0
T1B2C 000:528.180 JLINK_WriteReg(CFBP, 0x00000000)
T1B2C 000:528.184 - 0.003ms returns 0
T1B2C 000:528.189 JLINK_SetBPEx(Addr = 0x20000000, Type = 0xFFFFFFF2)
T1B2C 000:528.194 - 0.005ms returns 0x00000008
T1B2C 000:528.198 JLINK_Go()
T1B2C 000:528.209   CPU_ReadMem(4 bytes @ 0xE0001000)
T1B2C 000:531.793 - 3.593ms
T1B2C 000:531.815 JLINK_IsHalted()
T1B2C 000:532.255 - 0.439ms returns FALSE
T1B2C 000:532.282 JLINK_HasError()
T1B2C 000:533.922 JLINK_IsHalted()
T1B2C 000:534.447 - 0.524ms returns FALSE
T1B2C 000:534.474 JLINK_HasError()
T1B2C 000:536.437 JLINK_IsHalted()
T1B2C 000:536.853 - 0.416ms returns FALSE
T1B2C 000:536.859 JLINK_HasError()
T1B2C 000:538.875 JLINK_IsHalted()
T1B2C 000:539.444 - 0.568ms returns FALSE
T1B2C 000:539.467 JLINK_HasError()
T1B2C 000:540.871 JLINK_IsHalted()
T1B2C 000:541.416 - 0.544ms returns FALSE
T1B2C 000:541.422 JLINK_HasError()
T1B2C 000:542.645 JLINK_IsHalted()
T1B2C 000:543.155 - 0.509ms returns FALSE
T1B2C 000:543.186 JLINK_HasError()
T1B2C 000:544.667 JLINK_IsHalted()
T1B2C 000:545.236 - 0.569ms returns FALSE
T1B2C 000:545.268 JLINK_HasError()
T1B2C 000:546.645 JLINK_IsHalted()
T1B2C 000:547.210 - 0.564ms returns FALSE
T1B2C 000:547.232 JLINK_HasError()
T1B2C 000:549.214 JLINK_IsHalted()
T1B2C 000:549.755 - 0.540ms returns FALSE
T1B2C 000:549.785 JLINK_HasError()
T1B2C 000:551.213 JLINK_IsHalted()
T1B2C 000:551.762 - 0.548ms returns FALSE
T1B2C 000:551.790 JLINK_HasError()
T1B2C 000:553.755 JLINK_IsHalted()
T1B2C 000:554.199 - 0.442ms returns FALSE
T1B2C 000:554.231 JLINK_HasError()
T1B2C 000:555.773 JLINK_IsHalted()
T1B2C 000:556.242 - 0.468ms returns FALSE
T1B2C 000:556.261 JLINK_HasError()
T1B2C 000:558.779 JLINK_IsHalted()
T1B2C 000:559.223 - 0.442ms returns FALSE
T1B2C 000:559.248 JLINK_HasError()
T1B2C 000:560.787 JLINK_IsHalted()
T1B2C 000:561.415 - 0.629ms returns FALSE
T1B2C 000:561.423 JLINK_HasError()
T1B2C 000:562.769 JLINK_IsHalted()
T1B2C 000:566.118   CPU_ReadMem(2 bytes @ 0x20000000)
T1B2C 000:566.718 - 3.947ms returns TRUE
T1B2C 000:566.786 JLINK_ReadReg(R15 (PC))
T1B2C 000:566.792 - 0.005ms returns 0x20000000
T1B2C 000:566.796 JLINK_ClrBPEx(BPHandle = 0x00000008)
T1B2C 000:566.801 - 0.004ms returns 0x00
T1B2C 000:566.805 JLINK_ReadReg(R0)
T1B2C 000:566.809 - 0.004ms returns 0x00000000
T1B2C 000:567.135 JLINK_WriteMem(0x20000164, 0x29C Bytes, ...)
T1B2C 000:567.141   Data:  C1 F8 78 51 C1 F8 7C 51 40 1C C0 B2 C1 F8 80 51 ...
T1B2C 000:567.154   CPU_WriteMem(668 bytes @ 0x20000164)
T1B2C 000:575.315 - 8.179ms returns 0x29C
T1B2C 000:575.340 JLINK_WriteMem(0x20000400, 0x164 Bytes, ...)
T1B2C 000:575.354   Data:  00 29 2E DA 61 68 21 F0 03 01 01 43 61 60 FF F7 ...
T1B2C 000:575.365   CPU_WriteMem(356 bytes @ 0x20000400)
T1B2C 000:580.027 - 4.687ms returns 0x164
T1B2C 000:580.062 JLINK_HasError()
T1B2C 000:580.080 JLINK_WriteReg(R0, 0x08001000)
T1B2C 000:580.085 - 0.005ms returns 0
T1B2C 000:580.090 JLINK_WriteReg(R1, 0x00000400)
T1B2C 000:580.094 - 0.003ms returns 0
T1B2C 000:580.098 JLINK_WriteReg(R2, 0x20000164)
T1B2C 000:580.102 - 0.003ms returns 0
T1B2C 000:580.107 JLINK_WriteReg(R3, 0x00000000)
T1B2C 000:580.111 - 0.003ms returns 0
T1B2C 000:580.115 JLINK_WriteReg(R4, 0x00000000)
T1B2C 000:580.119 - 0.003ms returns 0
T1B2C 000:580.124 JLINK_WriteReg(R5, 0x00000000)
T1B2C 000:580.127 - 0.004ms returns 0
T1B2C 000:580.132 JLINK_WriteReg(R6, 0x00000000)
T1B2C 000:580.136 - 0.003ms returns 0
T1B2C 000:580.140 JLINK_WriteReg(R7, 0x00000000)
T1B2C 000:580.144 - 0.003ms returns 0
T1B2C 000:580.149 JLINK_WriteReg(R8, 0x00000000)
T1B2C 000:580.153 - 0.003ms returns 0
T1B2C 000:580.157 JLINK_WriteReg(R9, 0x20000160)
T1B2C 000:580.161 - 0.003ms returns 0
T1B2C 000:580.165 JLINK_WriteReg(R10, 0x00000000)
T1B2C 000:580.169 - 0.003ms returns 0
T1B2C 000:580.174 JLINK_WriteReg(R11, 0x00000000)
T1B2C 000:580.178 - 0.003ms returns 0
T1B2C 000:580.182 JLINK_WriteReg(R12, 0x00000000)
T1B2C 000:580.186 - 0.004ms returns 0
T1B2C 000:580.191 JLINK_WriteReg(R13 (SP), 0x20001000)
T1B2C 000:580.195 - 0.004ms returns 0
T1B2C 000:580.200 JLINK_WriteReg(R14, 0x20000001)
T1B2C 000:580.204 - 0.003ms returns 0
T1B2C 000:580.208 JLINK_WriteReg(R15 (PC), 0x200000F4)
T1B2C 000:580.212 - 0.003ms returns 0
T1B2C 000:580.217 JLINK_WriteReg(XPSR, 0x01000000)
T1B2C 000:580.221 - 0.003ms returns 0
T1B2C 000:580.225 JLINK_WriteReg(MSP, 0x20001000)
T1B2C 000:580.229 - 0.003ms returns 0
T1B2C 000:580.233 JLINK_WriteReg(PSP, 0x20001000)
T1B2C 000:580.237 - 0.003ms returns 0
T1B2C 000:580.242 JLINK_WriteReg(CFBP, 0x00000000)
T1B2C 000:580.246 - 0.004ms returns 0
T1B2C 000:580.251 JLINK_SetBPEx(Addr = 0x20000000, Type = 0xFFFFFFF2)
T1B2C 000:580.255 - 0.004ms returns 0x00000009
T1B2C 000:580.260 JLINK_Go()
T1B2C 000:580.269   CPU_ReadMem(4 bytes @ 0xE0001000)
T1B2C 000:583.981 - 3.720ms
T1B2C 000:584.010 JLINK_IsHalted()
T1B2C 000:584.528 - 0.517ms returns FALSE
T1B2C 000:584.556 JLINK_HasError()
T1B2C 000:585.984 JLINK_IsHalted()
T1B2C 000:586.450 - 0.466ms returns FALSE
T1B2C 000:586.457 JLINK_HasError()
T1B2C 000:587.984 JLINK_IsHalted()
T1B2C 000:588.454 - 0.470ms returns FALSE
T1B2C 000:588.460 JLINK_HasError()
T1B2C 000:589.588 JLINK_IsHalted()
T1B2C 000:590.118 - 0.529ms returns FALSE
T1B2C 000:590.147 JLINK_HasError()
T1B2C 000:592.211 JLINK_IsHalted()
T1B2C 000:592.661 - 0.449ms returns FALSE
T1B2C 000:592.689 JLINK_HasError()
T1B2C 000:594.666 JLINK_IsHalted()
T1B2C 000:595.109 - 0.443ms returns FALSE
T1B2C 000:595.115 JLINK_HasError()
T1B2C 000:596.668 JLINK_IsHalted()
T1B2C 000:597.146 - 0.476ms returns FALSE
T1B2C 000:597.175 JLINK_HasError()
T1B2C 000:599.144 JLINK_IsHalted()
T1B2C 000:599.628 - 0.483ms returns FALSE
T1B2C 000:599.654 JLINK_HasError()
T1B2C 000:601.634 JLINK_IsHalted()
T1B2C 000:602.096 - 0.462ms returns FALSE
T1B2C 000:602.101 JLINK_HasError()
T1B2C 000:604.108 JLINK_IsHalted()
T1B2C 000:604.745 - 0.636ms returns FALSE
T1B2C 000:604.766 JLINK_HasError()
T1B2C 000:606.688 JLINK_IsHalted()
T1B2C 000:607.128 - 0.440ms returns FALSE
T1B2C 000:607.150 JLINK_HasError()
T1B2C 000:609.128 JLINK_IsHalted()
T1B2C 000:609.603 - 0.474ms returns FALSE
T1B2C 000:609.630 JLINK_HasError()
T1B2C 000:611.592 JLINK_IsHalted()
T1B2C 000:612.037 - 0.443ms returns FALSE
T1B2C 000:612.069 JLINK_HasError()
T1B2C 000:614.037 JLINK_IsHalted()
T1B2C 000:614.563 - 0.525ms returns FALSE
T1B2C 000:614.593 JLINK_HasError()
T1B2C 000:616.039 JLINK_IsHalted()
T1B2C 000:619.324   CPU_ReadMem(2 bytes @ 0x20000000)
T1B2C 000:619.796 - 3.757ms returns TRUE
T1B2C 000:619.805 JLINK_ReadReg(R15 (PC))
T1B2C 000:619.810 - 0.005ms returns 0x20000000
T1B2C 000:619.830 JLINK_ClrBPEx(BPHandle = 0x00000009)
T1B2C 000:619.834 - 0.004ms returns 0x00
T1B2C 000:619.839 JLINK_ReadReg(R0)
T1B2C 000:619.843 - 0.004ms returns 0x00000000
T1B2C 000:620.151 JLINK_WriteMem(0x20000164, 0x29C Bytes, ...)
T1B2C 000:620.161   Data:  80 1B 64 28 01 D9 03 20 DC E7 20 68 80 03 F5 D4 ...
T1B2C 000:620.171   CPU_WriteMem(668 bytes @ 0x20000164)
T1B2C 000:628.275 - 8.124ms returns 0x29C
T1B2C 000:628.283 JLINK_WriteMem(0x20000400, 0x164 Bytes, ...)
T1B2C 000:628.287   Data:  FF F7 00 F8 A0 EB 0A 01 59 45 5A D8 28 6A 80 07 ...
T1B2C 000:628.295   CPU_WriteMem(356 bytes @ 0x20000400)
T1B2C 000:632.970 - 4.686ms returns 0x164
T1B2C 000:632.999 JLINK_HasError()
T1B2C 000:633.025 JLINK_WriteReg(R0, 0x08001400)
T1B2C 000:633.032 - 0.008ms returns 0
T1B2C 000:633.037 JLINK_WriteReg(R1, 0x00000400)
T1B2C 000:633.041 - 0.003ms returns 0
T1B2C 000:633.045 JLINK_WriteReg(R2, 0x20000164)
T1B2C 000:633.049 - 0.003ms returns 0
T1B2C 000:633.055 JLINK_WriteReg(R3, 0x00000000)
T1B2C 000:633.059 - 0.003ms returns 0
T1B2C 000:633.064 JLINK_WriteReg(R4, 0x00000000)
T1B2C 000:633.067 - 0.003ms returns 0
T1B2C 000:633.072 JLINK_WriteReg(R5, 0x00000000)
T1B2C 000:633.076 - 0.003ms returns 0
T1B2C 000:633.080 JLINK_WriteReg(R6, 0x00000000)
T1B2C 000:633.084 - 0.003ms returns 0
T1B2C 000:633.089 JLINK_WriteReg(R7, 0x00000000)
T1B2C 000:633.092 - 0.003ms returns 0
T1B2C 000:633.097 JLINK_WriteReg(R8, 0x00000000)
T1B2C 000:633.101 - 0.003ms returns 0
T1B2C 000:633.105 JLINK_WriteReg(R9, 0x20000160)
T1B2C 000:633.109 - 0.003ms returns 0
T1B2C 000:633.114 JLINK_WriteReg(R10, 0x00000000)
T1B2C 000:633.118 - 0.003ms returns 0
T1B2C 000:633.122 JLINK_WriteReg(R11, 0x00000000)
T1B2C 000:633.126 - 0.003ms returns 0
T1B2C 000:633.130 JLINK_WriteReg(R12, 0x00000000)
T1B2C 000:633.134 - 0.003ms returns 0
T1B2C 000:633.139 JLINK_WriteReg(R13 (SP), 0x20001000)
T1B2C 000:633.143 - 0.004ms returns 0
T1B2C 000:633.148 JLINK_WriteReg(R14, 0x20000001)
T1B2C 000:633.152 - 0.003ms returns 0
T1B2C 000:633.156 JLINK_WriteReg(R15 (PC), 0x200000F4)
T1B2C 000:633.160 - 0.003ms returns 0
T1B2C 000:633.164 JLINK_WriteReg(XPSR, 0x01000000)
T1B2C 000:633.168 - 0.003ms returns 0
T1B2C 000:633.173 JLINK_WriteReg(MSP, 0x20001000)
T1B2C 000:633.176 - 0.003ms returns 0
T1B2C 000:633.181 JLINK_WriteReg(PSP, 0x20001000)
T1B2C 000:633.185 - 0.003ms returns 0
T1B2C 000:633.189 JLINK_WriteReg(CFBP, 0x00000000)
T1B2C 000:633.193 - 0.003ms returns 0
T1B2C 000:633.198 JLINK_SetBPEx(Addr = 0x20000000, Type = 0xFFFFFFF2)
T1B2C 000:633.202 - 0.004ms returns 0x0000000A
T1B2C 000:633.207 JLINK_Go()
T1B2C 000:633.215   CPU_ReadMem(4 bytes @ 0xE0001000)
T1B2C 000:636.718 - 3.510ms
T1B2C 000:636.733 JLINK_IsHalted()
T1B2C 000:637.210 - 0.476ms returns FALSE
T1B2C 000:637.216 JLINK_HasError()
T1B2C 000:638.945 JLINK_IsHalted()
T1B2C 000:639.453 - 0.507ms returns FALSE
T1B2C 000:639.482 JLINK_HasError()
T1B2C 000:641.440 JLINK_IsHalted()
T1B2C 000:641.851 - 0.410ms returns FALSE
T1B2C 000:641.856 JLINK_HasError()
T1B2C 000:643.459 JLINK_IsHalted()
T1B2C 000:643.968 - 0.508ms returns FALSE
T1B2C 000:643.995 JLINK_HasError()
T1B2C 000:645.459 JLINK_IsHalted()
T1B2C 000:646.042 - 0.582ms returns FALSE
T1B2C 000:646.068 JLINK_HasError()
T1B2C 000:647.456 JLINK_IsHalted()
T1B2C 000:647.927 - 0.470ms returns FALSE
T1B2C 000:647.955 JLINK_HasError()
T1B2C 000:649.458 JLINK_IsHalted()
T1B2C 000:649.928 - 0.469ms returns FALSE
T1B2C 000:649.957 JLINK_HasError()
T1B2C 000:651.523 JLINK_IsHalted()
T1B2C 000:652.015 - 0.491ms returns FALSE
T1B2C 000:652.045 JLINK_HasError()
T1B2C 000:653.440 JLINK_IsHalted()
T1B2C 000:653.884 - 0.442ms returns FALSE
T1B2C 000:653.914 JLINK_HasError()
T1B2C 000:655.455 JLINK_IsHalted()
T1B2C 000:655.977 - 0.520ms returns FALSE
T1B2C 000:656.004 JLINK_HasError()
T1B2C 000:657.978 JLINK_IsHalted()
T1B2C 000:658.470 - 0.491ms returns FALSE
T1B2C 000:658.499 JLINK_HasError()
T1B2C 000:659.980 JLINK_IsHalted()
T1B2C 000:660.475 - 0.494ms returns FALSE
T1B2C 000:660.497 JLINK_HasError()
T1B2C 000:661.982 JLINK_IsHalted()
T1B2C 000:662.515 - 0.532ms returns FALSE
T1B2C 000:662.546 JLINK_HasError()
T1B2C 000:663.979 JLINK_IsHalted()
T1B2C 000:664.483 - 0.503ms returns FALSE
T1B2C 000:664.525 JLINK_HasError()
T1B2C 000:665.978 JLINK_IsHalted()
T1B2C 000:666.429 - 0.451ms returns FALSE
T1B2C 000:666.437 JLINK_HasError()
T1B2C 000:669.004 JLINK_IsHalted()
T1B2C 000:672.234   CPU_ReadMem(2 bytes @ 0x20000000)
T1B2C 000:672.803 - 3.797ms returns TRUE
T1B2C 000:672.843 JLINK_ReadReg(R15 (PC))
T1B2C 000:672.860 - 0.018ms returns 0x20000000
T1B2C 000:672.883 JLINK_ClrBPEx(BPHandle = 0x0000000A)
T1B2C 000:672.887 - 0.004ms returns 0x00
T1B2C 000:672.892 JLINK_ReadReg(R0)
T1B2C 000:672.896 - 0.004ms returns 0x00000000
T1B2C 000:673.204 JLINK_WriteMem(0x20000164, 0x29C Bytes, ...)
T1B2C 000:673.210   Data:  DB B2 93 42 EC D3 F0 BD 0A 48 82 B0 81 69 41 F0 ...
T1B2C 000:673.221   CPU_WriteMem(668 bytes @ 0x20000164)
T1B2C 000:681.457 - 8.251ms returns 0x29C
T1B2C 000:681.495 JLINK_WriteMem(0x20000400, 0x164 Bytes, ...)
T1B2C 000:681.507   Data:  EE E7 20 68 B0 F8 50 20 3B 78 06 21 01 EB C3 01 ...
T1B2C 000:681.516   CPU_WriteMem(356 bytes @ 0x20000400)
T1B2C 000:686.228 - 4.733ms returns 0x164
T1B2C 000:686.258 JLINK_HasError()
T1B2C 000:686.277 JLINK_WriteReg(R0, 0x08001800)
T1B2C 000:686.282 - 0.005ms returns 0
T1B2C 000:686.287 JLINK_WriteReg(R1, 0x00000400)
T1B2C 000:686.291 - 0.003ms returns 0
T1B2C 000:686.295 JLINK_WriteReg(R2, 0x20000164)
T1B2C 000:686.299 - 0.003ms returns 0
T1B2C 000:686.304 JLINK_WriteReg(R3, 0x00000000)
T1B2C 000:686.308 - 0.003ms returns 0
T1B2C 000:686.312 JLINK_WriteReg(R4, 0x00000000)
T1B2C 000:686.316 - 0.003ms returns 0
T1B2C 000:686.320 JLINK_WriteReg(R5, 0x00000000)
T1B2C 000:686.324 - 0.003ms returns 0
T1B2C 000:686.329 JLINK_WriteReg(R6, 0x00000000)
T1B2C 000:686.333 - 0.003ms returns 0
T1B2C 000:686.337 JLINK_WriteReg(R7, 0x00000000)
T1B2C 000:686.341 - 0.003ms returns 0
T1B2C 000:686.346 JLINK_WriteReg(R8, 0x00000000)
T1B2C 000:686.349 - 0.004ms returns 0
